
T713C 000:435 SEGGER J-Link V4.80g Log File (0001ms, 0265ms total)
T713C 000:435 DLL Compiled: Feb 13 2014 20:50:02 (0001ms, 0265ms total)
T713C 000:435 Logging started @ 2016-04-28 11:46 (0001ms, 0265ms total)
T713C 000:436 JLINK_SetWarnOutHandler(...) (0000ms, 0265ms total)
T713C 000:436 JLINK_OpenEx(...)
Firmware: J-Link ARM V8 compiled Nov 28 2014 13:44:46
Hardware: V8.00
S/N: 286370559
Feature(s): RDI,FlashDL,FlashBP,JFlash  returns O.K. (0266ms, 0531ms total)
T713C 000:702 JLINK_SetErrorOutHandler(...) (0000ms, 0531ms total)
T713C 000:702 JLINK_ExecCommand("ProjectFile = "F:\电子智能\智能车\myCar\ZeNN-myCar-dev_kl26\myCar\project\JLinkSettings.ini"", ...)  returns 0x00 (0000ms, 0531ms total)
T713C 000:709 JLINK_ExecCommand("Device = MKL26Z256xxx4", ...)Device "MKL26Z256XXX4" selected (256 KB flash, 32 KB RAM).  returns 0x00 (0008ms, 0539ms total)
T713C 000:717 JLINK_ExecCommand("DisableConnectionTimeout", ...)  returns 0x01 (0000ms, 0539ms total)
T713C 000:717 JLINK_GetHardwareVersion()  returns 0x13880 (0000ms, 0539ms total)
T713C 000:717 JLINK_GetDLLVersion()  returns 48007 (0000ms, 0539ms total)
T713C 000:717 JLINK_GetFirmwareString(...) (0000ms, 0539ms total)
T713C 000:724 JLINK_GetDLLVersion()  returns 48007 (0000ms, 0539ms total)
T713C 000:724 JLINK_GetCompileDateTime() (0000ms, 0539ms total)
T713C 000:725 JLINK_GetFirmwareString(...) (0000ms, 0539ms total)
T713C 000:728 JLINK_GetHardwareVersion()  returns 0x13880 (0000ms, 0539ms total)
T713C 000:751 JLINK_TIF_Select(JLINKARM_TIF_SWD)  returns 0x00 (0001ms, 0540ms total)
T713C 000:752 JLINK_SetSpeed(10000) (0001ms, 0541ms total)
T713C 000:753 JLINK_GetId() >0x108 TIF>Found SWD-DP with ID 0x0BC11477 >0x0D TIF> >0x28 TIF> >0x0D TIF> >0x28 TIF> >0x0D TIF> >0x21 TIF> >0x0D TIF> >0x28 TIF> >0x0D TIF> >0x21 TIF> >0x0D TIF> >0x21 TIF> >0x0D TIF> >0x21 TIF> >0x0D TIF> >0x21 TIF> >0x0D TIF> >0x21 TIF> >0x0D TIF> >0x21 TIF> >0x0D TIF> >0x21 TIF> >0x0D TIF> >0x21 TIF> >0x0D TIF> >0x21 TIF> >0x0D TIF> >0x21 TIF> >0x0D TIF> >0x28 TIF> >0x0D TIF> >0x28 TIF> >0x0D TIF> >0x28 TIF> >0x0D TIF> >0x28 TIF> >0x0D TIF> >0x28 TIF> >0x0D TIF>
 >0x28 TIF> >0x0D TIF> >0x28 TIF> >0x0D TIF> >0x21 TIF> >0x0D TIF> >0x21 TIF> >0x0D TIF> >0x28 TIF> >0x108 TIF>Found SWD-DP with ID 0x0BC11477 >0x0D TIF> >0x21 TIF> >0x0D TIF> >0x28 TIF> >0x0D TIF> >0x28 TIF> >0x0D TIF> >0x21 TIF> >0x0D TIF> >0x28 TIF> >0x0D TIF> >0x21 TIF> >0x0D TIF> >0x21 TIF> >0x0D TIF> >0x21 TIF> >0x0D TIF> >0x21 TIF> >0x0D TIF> >0x28 TIF> >0x0D TIF> >0x28 TIF> >0x0D TIF> >0x21 TIF> >0x0D TIF> >0x28 TIF> >0x0D TIF> >0x28 TIF> >0x0D TIF> >0x28 TIF> >0x0D TIF> >0x21 TIF> >0x0D TIF>
 >0x21 TIF> >0x0D TIF> >0x28 TIF> >0x0D TIF> >0x21 TIF> >0x0D TIF> >0x21 TIF>Found Cortex-M0 r0p0, Little endian. -- CPU_WriteMem(4 bytes @ 0xE0002000) -- CPU_ReadMem(4 bytes @ 0xE000EDF0) -- CPU_ReadMem(4 bytes @ 0xE0002000)FPUnit: 2 code (BP) slots and 0 literal slots -- CPU_ReadMem(4 bytes @ 0xE000EDFC) -- CPU_ReadMem(4 bytes @ 0xE0001000) -- CPU_WriteMem(4 bytes @ 0xE0001000) -- CPU_ReadMem(4 bytes @ 0xE00FF018) -- CPU_ReadMem(4 bytes @ 0x40048100) >0x0D TIF> >0x21 TIF>  returns 0x0BC11477
 (0121ms, 0662ms total)
T713C 000:874 JLINK_GetDeviceFamily()  returns 6 (0000ms, 0662ms total)
T713C 000:884 JLINK_ReadMem (0xE00FFFF0, 0x0010 Bytes, ...) -- CPU is running -- CPU_ReadMem(16 bytes @ 0xE00FFFF0) -- Data:  0D 00 00 00 10 00 00 00 05 00 00 00 B1 00 00 00  returns 0x00 (0000ms, 0662ms total)
T713C 000:884 JLINK_ReadMem (0xE00FFFD0, 0x0020 Bytes, ...) -- CPU is running -- CPU_ReadMem(32 bytes @ 0xE00FFFD0) -- Data:  04 00 00 00 00 00 00 00 00 00 00 00 00 00 00 00 ...  returns 0x00 (0001ms, 0663ms total)
T713C 000:885 JLINK_ReadMem (0xE00FF000, 0x0018 Bytes, ...) -- CPU is running -- CPU_ReadMem(24 bytes @ 0xE00FF000) -- Data:  03 F0 F0 FF 03 20 F0 FF 03 30 F0 FF 00 00 00 00 ...  returns 0x00 (0001ms, 0664ms total)
T713C 000:886 JLINK_ReadMemU32(0xE000ED00, 0x0001 Items, ...) -- CPU is running -- CPU_ReadMem(4 bytes @ 0xE000ED00) -- Data:  00 C6 0C 41  returns 0x01 (0001ms, 0665ms total)
T713C 000:887 JLINK_SetResetType(JLINKARM_RESET_TYPE_NORMAL)  returns JLINKARM_RESET_TYPE_NORMAL (0000ms, 0665ms total)
T713C 000:887 JLINK_Reset() -- CPU is running -- CPU_WriteMem(4 bytes @ 0xE000EDF0) -- CPU is running -- CPU_WriteMem(4 bytes @ 0xE000EDFC) >0x35 TIF> -- CPU is running -- CPU_WriteMem(4 bytes @ 0xE000ED0C) -- CPU is running -- CPU_ReadMem(4 bytes @ 0xE000EDF0) -- CPU is running -- CPU_ReadMem(4 bytes @ 0xE000EDF0) -- CPU is running -- CPU_WriteMem(4 bytes @ 0xE000EDF0) -- CPU is running -- CPU_WriteMem(4 bytes @ 0xE000EDFC) -- CPU is running -- CPU_ReadMem(4 bytes @ 0xE000EDF0)
 -- CPU_ReadMem(4 bytes @ 0x40048100)Kinetis L-series (setup): Disabling watchdog. -- CPU_WriteMem(4 bytes @ 0x40048100) -- CPU_WriteMem(4 bytes @ 0xE0002000) -- CPU_ReadMem(4 bytes @ 0xE000EDFC) -- CPU_ReadMem(4 bytes @ 0xE0001000) -- CPU_WriteMem(4 bytes @ 0xE0001000) (0039ms, 0704ms total)
T713C 000:926 JLINK_Halt()  returns 0x00 (0000ms, 0704ms total)
T713C 000:926 JLINK_IsHalted()  returns TRUE (0000ms, 0704ms total)
T713C 000:926 JLINK_ReadMemU32(0xE000EDF0, 0x0001 Items, ...) -- CPU_ReadMem(4 bytes @ 0xE000EDF0) -- Data:  03 00 03 01  returns 0x01 (0001ms, 0705ms total)
T713C 000:927 JLINK_WriteU32(0xE000EDF0, 0xA05F0003) -- CPU_WriteMem(4 bytes @ 0xE000EDF0)  returns 0x00 (0000ms, 0705ms total)
T713C 000:927 JLINK_WriteU32(0xE000EDFC, 0x01000000) -- CPU_WriteMem(4 bytes @ 0xE000EDFC)  returns 0x00 (0001ms, 0706ms total)
T713C 000:989 JLINK_GetHWStatus(...)  returns 0x00 (0000ms, 0706ms total)
T713C 001:047 JLINK_GetNumBPUnits(Type = 0xFFFFFF00)  returns 0x02 (0001ms, 0707ms total)
T713C 001:048 JLINK_GetNumBPUnits(Type = 0xF0)  returns 0x2000 (0000ms, 0707ms total)
T713C 001:048 JLINK_GetNumWPUnits()  returns 0x02 (0000ms, 0707ms total)
T713C 001:081 JLINK_GetSpeed()  returns 0xFA0 (0000ms, 0707ms total)
T713C 001:108 JLINK_ReadMemU32(0xE000E004, 0x0001 Items, ...) -- CPU_ReadMem(4 bytes @ 0xE000E004) -- Data:  00 00 00 00  returns 0x01 (0001ms, 0708ms total)
T713C 001:109 JLINK_Halt()  returns 0x00 (0000ms, 0708ms total)
T713C 001:109 JLINK_IsHalted()  returns TRUE (0000ms, 0708ms total)
T713C 001:117 JLINK_WriteMem(0x1FFFE000, 0x0618 Bytes, ...) -- Data:  00 BE 0A E0 0D 78 2D 06 68 40 08 24 40 00 00 D3 ... -- CPU_WriteMem(1560 bytes @ 0x1FFFE000)  returns 0x618 (0010ms, 0718ms total)
T713C 001:127 JLINK_WriteReg(R0, 0x00000000)  returns 0x00 (0000ms, 0718ms total)
T713C 001:127 JLINK_WriteReg(R1, 0x02DC6C00)  returns 0x00 (0000ms, 0718ms total)
T713C 001:127 JLINK_WriteReg(R2, 0x00000001)  returns 0x00 (0000ms, 0718ms total)
T713C 001:127 JLINK_WriteReg(R3, 0x00000000)  returns 0x00 (0000ms, 0718ms total)
T713C 001:127 JLINK_WriteReg(R4, 0x00000000)  returns 0x00 (0001ms, 0719ms total)
T713C 001:128 JLINK_WriteReg(R5, 0x00000000)  returns 0x00 (0000ms, 0719ms total)
T713C 001:128 JLINK_WriteReg(R6, 0x00000000)  returns 0x00 (0000ms, 0719ms total)
T713C 001:128 JLINK_WriteReg(R7, 0x00000000)  returns 0x00 (0000ms, 0719ms total)
T713C 001:128 JLINK_WriteReg(R8, 0x00000000)  returns 0x00 (0000ms, 0719ms total)
T713C 001:128 JLINK_WriteReg(R9, 0x1FFFE610)  returns 0x00 (0000ms, 0719ms total)
T713C 001:128 JLINK_WriteReg(R10, 0x00000000)  returns 0x00 (0000ms, 0719ms total)
T713C 001:128 JLINK_WriteReg(R11, 0x00000000)  returns 0x00 (0000ms, 0719ms total)
T713C 001:128 JLINK_WriteReg(R12, 0x00000000)  returns 0x00 (0000ms, 0719ms total)
T713C 001:128 JLINK_WriteReg(R13 (SP), 0x20006000)  returns 0x00 (0000ms, 0719ms total)
T713C 001:128 JLINK_WriteReg(R14, 0x1FFFE001)  returns 0x00 (0000ms, 0719ms total)
T713C 001:128 JLINK_WriteReg(R15 (PC), 0x1FFFE020)  returns 0x00 (0000ms, 0719ms total)
T713C 001:128 JLINK_WriteReg(XPSR, 0x01000000)  returns 0x00 (0000ms, 0719ms total)
T713C 001:128 JLINK_WriteReg(MSP, 0x20006000)  returns 0x00 (0000ms, 0719ms total)
T713C 001:128 JLINK_WriteReg(PSP, 0x20006000)  returns 0x00 (0000ms, 0719ms total)
T713C 001:128 JLINK_WriteReg(CFBP, 0x00000000)  returns 0x00 (0000ms, 0719ms total)
T713C 001:128 JLINK_SetBPEx(Addr = 0x1FFFE000, Type = 0xFFFFFFF2)  returns 0x00000001 (0000ms, 0719ms total)
T713C 001:129 JLINK_Go() -- CPU_WriteMem(4 bytes @ 0xE0002000) -- CPU_WriteMem(4 bytes @ 0xE0002008) -- CPU_WriteMem(4 bytes @ 0xE000200C) -- CPU_WriteMem(4 bytes @ 0xE0001004) (0004ms, 0724ms total)
T713C 001:133 JLINK_IsHalted()  returns TRUE (0002ms, 0726ms total)
T713C 001:135 JLINK_ReadReg(R15 (PC))  returns 0x1FFFE000 (0000ms, 0724ms total)
T713C 001:135 JLINK_ClrBPEx(BPHandle = 0x00000001)  returns 0x00 (0000ms, 0724ms total)
T713C 001:135 JLINK_ReadReg(R0)  returns 0x00000000 (0000ms, 0724ms total)
T713C 001:137 JLINK_WriteReg(R0, 0x00000000)  returns 0x00 (0000ms, 0724ms total)
T713C 001:137 JLINK_WriteReg(R1, 0x00000400)  returns 0x00 (0000ms, 0724ms total)
T713C 001:137 JLINK_WriteReg(R2, 0x000000FF)  returns 0x00 (0000ms, 0724ms total)
T713C 001:137 JLINK_WriteReg(R3, 0x00000000)  returns 0x00 (0000ms, 0724ms total)
T713C 001:137 JLINK_WriteReg(R4, 0x00000000)  returns 0x00 (0000ms, 0724ms total)
T713C 001:137 JLINK_WriteReg(R5, 0x00000000)  returns 0x00 (0000ms, 0724ms total)
T713C 001:137 JLINK_WriteReg(R6, 0x00000000)  returns 0x00 (0000ms, 0724ms total)
T713C 001:137 JLINK_WriteReg(R7, 0x00000000)  returns 0x00 (0001ms, 0725ms total)
T713C 001:138 JLINK_WriteReg(R8, 0x00000000)  returns 0x00 (0000ms, 0725ms total)
T713C 001:138 JLINK_WriteReg(R9, 0x1FFFE610)  returns 0x00 (0000ms, 0725ms total)
T713C 001:138 JLINK_WriteReg(R10, 0x00000000)  returns 0x00 (0000ms, 0725ms total)
T713C 001:138 JLINK_WriteReg(R11, 0x00000000)  returns 0x00 (0000ms, 0725ms total)
T713C 001:138 JLINK_WriteReg(R12, 0x00000000)  returns 0x00 (0000ms, 0725ms total)
T713C 001:138 JLINK_WriteReg(R13 (SP), 0x20006000)  returns 0x00 (0000ms, 0725ms total)
T713C 001:138 JLINK_WriteReg(R14, 0x1FFFE001)  returns 0x00 (0000ms, 0725ms total)
T713C 001:138 JLINK_WriteReg(R15 (PC), 0x1FFFE068)  returns 0x00 (0000ms, 0725ms total)
T713C 001:138 JLINK_WriteReg(XPSR, 0x01000000)  returns 0x00 (0000ms, 0725ms total)
T713C 001:138 JLINK_WriteReg(MSP, 0x20006000)  returns 0x00 (0000ms, 0725ms total)
T713C 001:138 JLINK_WriteReg(PSP, 0x20006000)  returns 0x00 (0000ms, 0725ms total)
T713C 001:138 JLINK_WriteReg(CFBP, 0x00000000)  returns 0x00 (0000ms, 0725ms total)
T713C 001:138 JLINK_SetBPEx(Addr = 0x1FFFE000, Type = 0xFFFFFFF2)  returns 0x00000002 (0000ms, 0725ms total)
T713C 001:138 JLINK_Go() -- CPU_WriteMem(4 bytes @ 0xE0002000) (0003ms, 0728ms total)
T713C 001:141 JLINK_IsHalted()  returns TRUE (0002ms, 0730ms total)
T713C 001:143 JLINK_ReadReg(R15 (PC))  returns 0x1FFFE000 (0000ms, 0728ms total)
T713C 001:143 JLINK_ClrBPEx(BPHandle = 0x00000002)  returns 0x00 (0001ms, 0729ms total)
T713C 001:144 JLINK_ReadReg(R0)  returns 0x00000001 (0000ms, 0729ms total)
T713C 001:144 JLINK_WriteReg(R0, 0x00000000)  returns 0x00 (0000ms, 0729ms total)
T713C 001:144 JLINK_WriteReg(R1, 0x00000400)  returns 0x00 (0000ms, 0729ms total)
T713C 001:144 JLINK_WriteReg(R2, 0x000000FF)  returns 0x00 (0000ms, 0729ms total)
T713C 001:144 JLINK_WriteReg(R3, 0x00000000)  returns 0x00 (0000ms, 0729ms total)
T713C 001:144 JLINK_WriteReg(R4, 0x00000000)  returns 0x00 (0000ms, 0729ms total)
T713C 001:144 JLINK_WriteReg(R5, 0x00000000)  returns 0x00 (0000ms, 0729ms total)
T713C 001:144 JLINK_WriteReg(R6, 0x00000000)  returns 0x00 (0000ms, 0729ms total)
T713C 001:144 JLINK_WriteReg(R7, 0x00000000)  returns 0x00 (0000ms, 0729ms total)
T713C 001:144 JLINK_WriteReg(R8, 0x00000000)  returns 0x00 (0000ms, 0729ms total)
T713C 001:144 JLINK_WriteReg(R9, 0x1FFFE610)  returns 0x00 (0000ms, 0729ms total)
T713C 001:144 JLINK_WriteReg(R10, 0x00000000)  returns 0x00 (0000ms, 0729ms total)
T713C 001:144 JLINK_WriteReg(R11, 0x00000000)  returns 0x00 (0000ms, 0729ms total)
T713C 001:144 JLINK_WriteReg(R12, 0x00000000)  returns 0x00 (0000ms, 0729ms total)
T713C 001:144 JLINK_WriteReg(R13 (SP), 0x20006000)  returns 0x00 (0000ms, 0729ms total)
T713C 001:144 JLINK_WriteReg(R14, 0x1FFFE001)  returns 0x00 (0000ms, 0729ms total)
T713C 001:144 JLINK_WriteReg(R15 (PC), 0x1FFFE0BC)  returns 0x00 (0000ms, 0729ms total)
T713C 001:144 JLINK_WriteReg(XPSR, 0x01000000)  returns 0x00 (0000ms, 0729ms total)
T713C 001:144 JLINK_WriteReg(MSP, 0x20006000)  returns 0x00 (0001ms, 0730ms total)
T713C 001:145 JLINK_WriteReg(PSP, 0x20006000)  returns 0x00 (0000ms, 0730ms total)
T713C 001:145 JLINK_WriteReg(CFBP, 0x00000000)  returns 0x00 (0000ms, 0730ms total)
T713C 001:145 JLINK_SetBPEx(Addr = 0x1FFFE000, Type = 0xFFFFFFF2)  returns 0x00000003 (0000ms, 0730ms total)
T713C 001:145 JLINK_Go() -- CPU_WriteMem(4 bytes @ 0xE0002000) (0002ms, 0732ms total)
T713C 001:147 JLINK_IsHalted()  returns FALSE (0001ms, 0733ms total)
T713C 001:384 JLINK_IsHalted()  returns TRUE (0002ms, 0734ms total)
T713C 001:386 JLINK_ReadReg(R15 (PC))  returns 0x1FFFE000 (0000ms, 0732ms total)
T713C 001:386 JLINK_ClrBPEx(BPHandle = 0x00000003)  returns 0x00 (0000ms, 0732ms total)
T713C 001:386 JLINK_ReadReg(R0)  returns 0x00000000 (0000ms, 0732ms total)
T713C 001:386 JLINK_WriteReg(R0, 0x00000400)  returns 0x00 (0000ms, 0732ms total)
T713C 001:386 JLINK_WriteReg(R1, 0x00000400)  returns 0x00 (0000ms, 0732ms total)
T713C 001:386 JLINK_WriteReg(R2, 0x000000FF)  returns 0x00 (0000ms, 0732ms total)
T713C 001:386 JLINK_WriteReg(R3, 0x00000000)  returns 0x00 (0000ms, 0732ms total)
T713C 001:386 JLINK_WriteReg(R4, 0x00000000)  returns 0x00 (0000ms, 0732ms total)
T713C 001:386 JLINK_WriteReg(R5, 0x00000000)  returns 0x00 (0000ms, 0732ms total)
T713C 001:386 JLINK_WriteReg(R6, 0x00000000)  returns 0x00 (0000ms, 0732ms total)
T713C 001:386 JLINK_WriteReg(R7, 0x00000000)  returns 0x00 (0000ms, 0732ms total)
T713C 001:386 JLINK_WriteReg(R8, 0x00000000)  returns 0x00 (0001ms, 0733ms total)
T713C 001:387 JLINK_WriteReg(R9, 0x1FFFE610)  returns 0x00 (0000ms, 0733ms total)
T713C 001:387 JLINK_WriteReg(R10, 0x00000000)  returns 0x00 (0000ms, 0733ms total)
T713C 001:387 JLINK_WriteReg(R11, 0x00000000)  returns 0x00 (0000ms, 0733ms total)
T713C 001:387 JLINK_WriteReg(R12, 0x00000000)  returns 0x00 (0000ms, 0733ms total)
T713C 001:387 JLINK_WriteReg(R13 (SP), 0x20006000)  returns 0x00 (0000ms, 0733ms total)
T713C 001:387 JLINK_WriteReg(R14, 0x1FFFE001)  returns 0x00 (0000ms, 0733ms total)
T713C 001:387 JLINK_WriteReg(R15 (PC), 0x1FFFE068)  returns 0x00 (0000ms, 0733ms total)
T713C 001:387 JLINK_WriteReg(XPSR, 0x01000000)  returns 0x00 (0000ms, 0733ms total)
T713C 001:387 JLINK_WriteReg(MSP, 0x20006000)  returns 0x00 (0000ms, 0733ms total)
T713C 001:387 JLINK_WriteReg(PSP, 0x20006000)  returns 0x00 (0000ms, 0733ms total)
T713C 001:387 JLINK_WriteReg(CFBP, 0x00000000)  returns 0x00 (0000ms, 0733ms total)
T713C 001:387 JLINK_SetBPEx(Addr = 0x1FFFE000, Type = 0xFFFFFFF2)  returns 0x00000004 (0000ms, 0733ms total)
T713C 001:387 JLINK_Go() -- CPU_WriteMem(4 bytes @ 0xE0002000) (0001ms, 0734ms total)
T713C 001:388 JLINK_IsHalted()  returns TRUE (0002ms, 0736ms total)
T713C 001:390 JLINK_ReadReg(R15 (PC))  returns 0x1FFFE000 (0000ms, 0734ms total)
T713C 001:390 JLINK_ClrBPEx(BPHandle = 0x00000004)  returns 0x00 (0001ms, 0735ms total)
T713C 001:391 JLINK_ReadReg(R0)  returns 0x00000001 (0000ms, 0735ms total)
T713C 001:391 JLINK_WriteReg(R0, 0x00000400)  returns 0x00 (0000ms, 0735ms total)
T713C 001:391 JLINK_WriteReg(R1, 0x00000400)  returns 0x00 (0000ms, 0735ms total)
T713C 001:391 JLINK_WriteReg(R2, 0x000000FF)  returns 0x00 (0000ms, 0735ms total)
T713C 001:391 JLINK_WriteReg(R3, 0x00000000)  returns 0x00 (0000ms, 0735ms total)
T713C 001:391 JLINK_WriteReg(R4, 0x00000000)  returns 0x00 (0000ms, 0735ms total)
T713C 001:391 JLINK_WriteReg(R5, 0x00000000)  returns 0x00 (0000ms, 0735ms total)
T713C 001:391 JLINK_WriteReg(R6, 0x00000000)  returns 0x00 (0000ms, 0735ms total)
T713C 001:391 JLINK_WriteReg(R7, 0x00000000)  returns 0x00 (0000ms, 0735ms total)
T713C 001:391 JLINK_WriteReg(R8, 0x00000000)  returns 0x00 (0000ms, 0735ms total)
T713C 001:391 JLINK_WriteReg(R9, 0x1FFFE610)  returns 0x00 (0000ms, 0735ms total)
T713C 001:391 JLINK_WriteReg(R10, 0x00000000)  returns 0x00 (0000ms, 0735ms total)
T713C 001:391 JLINK_WriteReg(R11, 0x00000000)  returns 0x00 (0000ms, 0735ms total)
T713C 001:391 JLINK_WriteReg(R12, 0x00000000)  returns 0x00 (0000ms, 0735ms total)
T713C 001:391 JLINK_WriteReg(R13 (SP), 0x20006000)  returns 0x00 (0000ms, 0735ms total)
T713C 001:391 JLINK_WriteReg(R14, 0x1FFFE001)  returns 0x00 (0000ms, 0735ms total)
T713C 001:391 JLINK_WriteReg(R15 (PC), 0x1FFFE0BC)  returns 0x00 (0000ms, 0735ms total)
T713C 001:391 JLINK_WriteReg(XPSR, 0x01000000)  returns 0x00 (0000ms, 0735ms total)
T713C 001:391 JLINK_WriteReg(MSP, 0x20006000)  returns 0x00 (0000ms, 0735ms total)
T713C 001:391 JLINK_WriteReg(PSP, 0x20006000)  returns 0x00 (0000ms, 0735ms total)
T713C 001:391 JLINK_WriteReg(CFBP, 0x00000000)  returns 0x00 (0000ms, 0735ms total)
T713C 001:391 JLINK_SetBPEx(Addr = 0x1FFFE000, Type = 0xFFFFFFF2)  returns 0x00000005 (0000ms, 0735ms total)
T713C 001:391 JLINK_Go() -- CPU_WriteMem(4 bytes @ 0xE0002000) (0002ms, 0737ms total)
T713C 001:393 JLINK_IsHalted()  returns FALSE (0000ms, 0737ms total)
T713C 001:415 JLINK_IsHalted()  returns TRUE (0002ms, 0739ms total)
T713C 001:417 JLINK_ReadReg(R15 (PC))  returns 0x1FFFE000 (0000ms, 0737ms total)
T713C 001:417 JLINK_ClrBPEx(BPHandle = 0x00000005)  returns 0x00 (0000ms, 0737ms total)
T713C 001:417 JLINK_ReadReg(R0)  returns 0x00000000 (0000ms, 0737ms total)
T713C 001:417 JLINK_WriteReg(R0, 0x00000800)  returns 0x00 (0000ms, 0737ms total)
T713C 001:417 JLINK_WriteReg(R1, 0x00000400)  returns 0x00 (0000ms, 0737ms total)
T713C 001:418 JLINK_WriteReg(R2, 0x000000FF)  returns 0x00 (0000ms, 0737ms total)
T713C 001:418 JLINK_WriteReg(R3, 0x00000000)  returns 0x00 (0000ms, 0737ms total)
T713C 001:418 JLINK_WriteReg(R4, 0x00000000)  returns 0x00 (0000ms, 0737ms total)
T713C 001:418 JLINK_WriteReg(R5, 0x00000000)  returns 0x00 (0000ms, 0737ms total)
T713C 001:418 JLINK_WriteReg(R6, 0x00000000)  returns 0x00 (0000ms, 0737ms total)
T713C 001:418 JLINK_WriteReg(R7, 0x00000000)  returns 0x00 (0000ms, 0737ms total)
T713C 001:418 JLINK_WriteReg(R8, 0x00000000)  returns 0x00 (0000ms, 0737ms total)
T713C 001:418 JLINK_WriteReg(R9, 0x1FFFE610)  returns 0x00 (0000ms, 0737ms total)
T713C 001:418 JLINK_WriteReg(R10, 0x00000000)  returns 0x00 (0000ms, 0737ms total)
T713C 001:418 JLINK_WriteReg(R11, 0x00000000)  returns 0x00 (0000ms, 0737ms total)
T713C 001:418 JLINK_WriteReg(R12, 0x00000000)  returns 0x00 (0000ms, 0737ms total)
T713C 001:418 JLINK_WriteReg(R13 (SP), 0x20006000)  returns 0x00 (0000ms, 0737ms total)
T713C 001:418 JLINK_WriteReg(R14, 0x1FFFE001)  returns 0x00 (0000ms, 0737ms total)
T713C 001:418 JLINK_WriteReg(R15 (PC), 0x1FFFE068)  returns 0x00 (0000ms, 0737ms total)
T713C 001:418 JLINK_WriteReg(XPSR, 0x01000000)  returns 0x00 (0000ms, 0737ms total)
T713C 001:418 JLINK_WriteReg(MSP, 0x20006000)  returns 0x00 (0000ms, 0737ms total)
T713C 001:418 JLINK_WriteReg(PSP, 0x20006000)  returns 0x00 (0000ms, 0737ms total)
T713C 001:418 JLINK_WriteReg(CFBP, 0x00000000)  returns 0x00 (0000ms, 0737ms total)
T713C 001:418 JLINK_SetBPEx(Addr = 0x1FFFE000, Type = 0xFFFFFFF2)  returns 0x00000006 (0000ms, 0737ms total)
T713C 001:418 JLINK_Go() -- CPU_WriteMem(4 bytes @ 0xE0002000) (0001ms, 0738ms total)
T713C 001:419 JLINK_IsHalted()  returns TRUE (0003ms, 0741ms total)
T713C 001:422 JLINK_ReadReg(R15 (PC))  returns 0x1FFFE000 (0000ms, 0738ms total)
T713C 001:422 JLINK_ClrBPEx(BPHandle = 0x00000006)  returns 0x00 (0000ms, 0738ms total)
T713C 001:422 JLINK_ReadReg(R0)  returns 0x00000001 (0000ms, 0738ms total)
T713C 001:422 JLINK_WriteReg(R0, 0x00000800)  returns 0x00 (0000ms, 0738ms total)
T713C 001:422 JLINK_WriteReg(R1, 0x00000400)  returns 0x00 (0000ms, 0738ms total)
T713C 001:422 JLINK_WriteReg(R2, 0x000000FF)  returns 0x00 (0000ms, 0738ms total)
T713C 001:422 JLINK_WriteReg(R3, 0x00000000)  returns 0x00 (0000ms, 0738ms total)
T713C 001:422 JLINK_WriteReg(R4, 0x00000000)  returns 0x00 (0000ms, 0738ms total)
T713C 001:422 JLINK_WriteReg(R5, 0x00000000)  returns 0x00 (0000ms, 0738ms total)
T713C 001:422 JLINK_WriteReg(R6, 0x00000000)  returns 0x00 (0000ms, 0738ms total)
T713C 001:422 JLINK_WriteReg(R7, 0x00000000)  returns 0x00 (0000ms, 0738ms total)
T713C 001:422 JLINK_WriteReg(R8, 0x00000000)  returns 0x00 (0000ms, 0738ms total)
T713C 001:422 JLINK_WriteReg(R9, 0x1FFFE610)  returns 0x00 (0000ms, 0738ms total)
T713C 001:422 JLINK_WriteReg(R10, 0x00000000)  returns 0x00 (0000ms, 0738ms total)
T713C 001:422 JLINK_WriteReg(R11, 0x00000000)  returns 0x00 (0000ms, 0738ms total)
T713C 001:422 JLINK_WriteReg(R12, 0x00000000)  returns 0x00 (0000ms, 0738ms total)
T713C 001:422 JLINK_WriteReg(R13 (SP), 0x20006000)  returns 0x00 (0000ms, 0738ms total)
T713C 001:422 JLINK_WriteReg(R14, 0x1FFFE001)  returns 0x00 (0000ms, 0738ms total)
T713C 001:422 JLINK_WriteReg(R15 (PC), 0x1FFFE0BC)  returns 0x00 (0000ms, 0738ms total)
T713C 001:422 JLINK_WriteReg(XPSR, 0x01000000)  returns 0x00 (0000ms, 0738ms total)
T713C 001:422 JLINK_WriteReg(MSP, 0x20006000)  returns 0x00 (0000ms, 0738ms total)
T713C 001:422 JLINK_WriteReg(PSP, 0x20006000)  returns 0x00 (0000ms, 0738ms total)
T713C 001:422 JLINK_WriteReg(CFBP, 0x00000000)  returns 0x00 (0000ms, 0738ms total)
T713C 001:422 JLINK_SetBPEx(Addr = 0x1FFFE000, Type = 0xFFFFFFF2)  returns 0x00000007 (0000ms, 0738ms total)
T713C 001:422 JLINK_Go() -- CPU_WriteMem(4 bytes @ 0xE0002000) (0002ms, 0740ms total)
T713C 001:424 JLINK_IsHalted()  returns FALSE (0000ms, 0740ms total)
T713C 001:443 JLINK_IsHalted()  returns TRUE (0002ms, 0742ms total)
T713C 001:445 JLINK_ReadReg(R15 (PC))  returns 0x1FFFE000 (0000ms, 0740ms total)
T713C 001:445 JLINK_ClrBPEx(BPHandle = 0x00000007)  returns 0x00 (0000ms, 0740ms total)
T713C 001:445 JLINK_ReadReg(R0)  returns 0x00000000 (0000ms, 0740ms total)
T713C 001:445 JLINK_WriteReg(R0, 0x00000C00)  returns 0x00 (0001ms, 0741ms total)
T713C 001:446 JLINK_WriteReg(R1, 0x00000400)  returns 0x00 (0000ms, 0741ms total)
T713C 001:446 JLINK_WriteReg(R2, 0x000000FF)  returns 0x00 (0000ms, 0741ms total)
T713C 001:446 JLINK_WriteReg(R3, 0x00000000)  returns 0x00 (0000ms, 0741ms total)
T713C 001:446 JLINK_WriteReg(R4, 0x00000000)  returns 0x00 (0000ms, 0741ms total)
T713C 001:446 JLINK_WriteReg(R5, 0x00000000)  returns 0x00 (0000ms, 0741ms total)
T713C 001:446 JLINK_WriteReg(R6, 0x00000000)  returns 0x00 (0000ms, 0741ms total)
T713C 001:446 JLINK_WriteReg(R7, 0x00000000)  returns 0x00 (0000ms, 0741ms total)
T713C 001:446 JLINK_WriteReg(R8, 0x00000000)  returns 0x00 (0000ms, 0741ms total)
T713C 001:446 JLINK_WriteReg(R9, 0x1FFFE610)  returns 0x00 (0000ms, 0741ms total)
T713C 001:446 JLINK_WriteReg(R10, 0x00000000)  returns 0x00 (0000ms, 0741ms total)
T713C 001:446 JLINK_WriteReg(R11, 0x00000000)  returns 0x00 (0000ms, 0741ms total)
T713C 001:446 JLINK_WriteReg(R12, 0x00000000)  returns 0x00 (0000ms, 0741ms total)
T713C 001:446 JLINK_WriteReg(R13 (SP), 0x20006000)  returns 0x00 (0000ms, 0741ms total)
T713C 001:446 JLINK_WriteReg(R14, 0x1FFFE001)  returns 0x00 (0000ms, 0741ms total)
T713C 001:446 JLINK_WriteReg(R15 (PC), 0x1FFFE068)  returns 0x00 (0000ms, 0741ms total)
T713C 001:446 JLINK_WriteReg(XPSR, 0x01000000)  returns 0x00 (0000ms, 0741ms total)
T713C 001:446 JLINK_WriteReg(MSP, 0x20006000)  returns 0x00 (0000ms, 0741ms total)
T713C 001:446 JLINK_WriteReg(PSP, 0x20006000)  returns 0x00 (0000ms, 0741ms total)
T713C 001:446 JLINK_WriteReg(CFBP, 0x00000000)  returns 0x00 (0000ms, 0741ms total)
T713C 001:446 JLINK_SetBPEx(Addr = 0x1FFFE000, Type = 0xFFFFFFF2)  returns 0x00000008 (0000ms, 0741ms total)
T713C 001:446 JLINK_Go() -- CPU_WriteMem(4 bytes @ 0xE0002000) (0002ms, 0743ms total)
T713C 001:448 JLINK_IsHalted()  returns TRUE (0002ms, 0745ms total)
T713C 001:450 JLINK_ReadReg(R15 (PC))  returns 0x1FFFE000 (0000ms, 0743ms total)
T713C 001:450 JLINK_ClrBPEx(BPHandle = 0x00000008)  returns 0x00 (0000ms, 0743ms total)
T713C 001:450 JLINK_ReadReg(R0)  returns 0x00000001 (0000ms, 0743ms total)
T713C 001:450 JLINK_WriteReg(R0, 0x00000C00)  returns 0x00 (0000ms, 0743ms total)
T713C 001:450 JLINK_WriteReg(R1, 0x00000400)  returns 0x00 (0000ms, 0743ms total)
T713C 001:450 JLINK_WriteReg(R2, 0x000000FF)  returns 0x00 (0000ms, 0743ms total)
T713C 001:450 JLINK_WriteReg(R3, 0x00000000)  returns 0x00 (0000ms, 0743ms total)
T713C 001:450 JLINK_WriteReg(R4, 0x00000000)  returns 0x00 (0000ms, 0743ms total)
T713C 001:450 JLINK_WriteReg(R5, 0x00000000)  returns 0x00 (0000ms, 0743ms total)
T713C 001:450 JLINK_WriteReg(R6, 0x00000000)  returns 0x00 (0000ms, 0743ms total)
T713C 001:450 JLINK_WriteReg(R7, 0x00000000)  returns 0x00 (0000ms, 0743ms total)
T713C 001:450 JLINK_WriteReg(R8, 0x00000000)  returns 0x00 (0000ms, 0743ms total)
T713C 001:450 JLINK_WriteReg(R9, 0x1FFFE610)  returns 0x00 (0000ms, 0743ms total)
T713C 001:450 JLINK_WriteReg(R10, 0x00000000)  returns 0x00 (0000ms, 0743ms total)
T713C 001:450 JLINK_WriteReg(R11, 0x00000000)  returns 0x00 (0000ms, 0743ms total)
T713C 001:450 JLINK_WriteReg(R12, 0x00000000)  returns 0x00 (0000ms, 0743ms total)
T713C 001:450 JLINK_WriteReg(R13 (SP), 0x20006000)  returns 0x00 (0000ms, 0743ms total)
T713C 001:450 JLINK_WriteReg(R14, 0x1FFFE001)  returns 0x00 (0000ms, 0743ms total)
T713C 001:450 JLINK_WriteReg(R15 (PC), 0x1FFFE0BC)  returns 0x00 (0000ms, 0743ms total)
T713C 001:450 JLINK_WriteReg(XPSR, 0x01000000)  returns 0x00 (0000ms, 0743ms total)
T713C 001:450 JLINK_WriteReg(MSP, 0x20006000)  returns 0x00 (0000ms, 0743ms total)
T713C 001:450 JLINK_WriteReg(PSP, 0x20006000)  returns 0x00 (0000ms, 0743ms total)
T713C 001:450 JLINK_WriteReg(CFBP, 0x00000000)  returns 0x00 (0000ms, 0743ms total)
T713C 001:450 JLINK_SetBPEx(Addr = 0x1FFFE000, Type = 0xFFFFFFF2)  returns 0x00000009 (0000ms, 0743ms total)
T713C 001:450 JLINK_Go() -- CPU_WriteMem(4 bytes @ 0xE0002000) (0002ms, 0745ms total)
T713C 001:452 JLINK_IsHalted()  returns FALSE (0000ms, 0745ms total)
T713C 001:454 JLINK_IsHalted()  returns FALSE (0000ms, 0745ms total)
T713C 001:456 JLINK_IsHalted()  returns FALSE (0000ms, 0745ms total)
T713C 001:458 JLINK_IsHalted()  returns FALSE (0000ms, 0745ms total)
T713C 001:460 JLINK_IsHalted()  returns TRUE (0002ms, 0747ms total)
T713C 001:462 JLINK_ReadReg(R15 (PC))  returns 0x1FFFE000 (0000ms, 0745ms total)
T713C 001:462 JLINK_ClrBPEx(BPHandle = 0x00000009)  returns 0x00 (0000ms, 0745ms total)
T713C 001:462 JLINK_ReadReg(R0)  returns 0x00000000 (0000ms, 0745ms total)
T713C 001:462 JLINK_WriteReg(R0, 0x00001000)  returns 0x00 (0000ms, 0745ms total)
T713C 001:462 JLINK_WriteReg(R1, 0x00000400)  returns 0x00 (0000ms, 0745ms total)
T713C 001:462 JLINK_WriteReg(R2, 0x000000FF)  returns 0x00 (0000ms, 0745ms total)
T713C 001:462 JLINK_WriteReg(R3, 0x00000000)  returns 0x00 (0000ms, 0745ms total)
T713C 001:462 JLINK_WriteReg(R4, 0x00000000)  returns 0x00 (0000ms, 0745ms total)
T713C 001:462 JLINK_WriteReg(R5, 0x00000000)  returns 0x00 (0000ms, 0745ms total)
T713C 001:462 JLINK_WriteReg(R6, 0x00000000)  returns 0x00 (0000ms, 0745ms total)
T713C 001:462 JLINK_WriteReg(R7, 0x00000000)  returns 0x00 (0000ms, 0745ms total)
T713C 001:462 JLINK_WriteReg(R8, 0x00000000)  returns 0x00 (0000ms, 0745ms total)
T713C 001:462 JLINK_WriteReg(R9, 0x1FFFE610)  returns 0x00 (0000ms, 0745ms total)
T713C 001:462 JLINK_WriteReg(R10, 0x00000000)  returns 0x00 (0000ms, 0745ms total)
T713C 001:462 JLINK_WriteReg(R11, 0x00000000)  returns 0x00 (0000ms, 0745ms total)
T713C 001:462 JLINK_WriteReg(R12, 0x00000000)  returns 0x00 (0000ms, 0745ms total)
T713C 001:462 JLINK_WriteReg(R13 (SP), 0x20006000)  returns 0x00 (0000ms, 0745ms total)
T713C 001:463 JLINK_WriteReg(R14, 0x1FFFE001)  returns 0x00 (0000ms, 0745ms total)
T713C 001:463 JLINK_WriteReg(R15 (PC), 0x1FFFE068)  returns 0x00 (0000ms, 0745ms total)
T713C 001:463 JLINK_WriteReg(XPSR, 0x01000000)  returns 0x00 (0000ms, 0745ms total)
T713C 001:463 JLINK_WriteReg(MSP, 0x20006000)  returns 0x00 (0000ms, 0745ms total)
T713C 001:463 JLINK_WriteReg(PSP, 0x20006000)  returns 0x00 (0000ms, 0745ms total)
T713C 001:463 JLINK_WriteReg(CFBP, 0x00000000)  returns 0x00 (0000ms, 0745ms total)
T713C 001:463 JLINK_SetBPEx(Addr = 0x1FFFE000, Type = 0xFFFFFFF2)  returns 0x0000000A (0000ms, 0745ms total)
T713C 001:463 JLINK_Go() -- CPU_WriteMem(4 bytes @ 0xE0002000) (0001ms, 0746ms total)
T713C 001:464 JLINK_IsHalted()  returns TRUE (0003ms, 0749ms total)
T713C 001:467 JLINK_ReadReg(R15 (PC))  returns 0x1FFFE000 (0000ms, 0746ms total)
T713C 001:467 JLINK_ClrBPEx(BPHandle = 0x0000000A)  returns 0x00 (0000ms, 0746ms total)
T713C 001:467 JLINK_ReadReg(R0)  returns 0x00000001 (0000ms, 0746ms total)
T713C 001:467 JLINK_WriteReg(R0, 0x00001000)  returns 0x00 (0000ms, 0746ms total)
T713C 001:467 JLINK_WriteReg(R1, 0x00000400)  returns 0x00 (0000ms, 0746ms total)
T713C 001:467 JLINK_WriteReg(R2, 0x000000FF)  returns 0x00 (0000ms, 0746ms total)
T713C 001:467 JLINK_WriteReg(R3, 0x00000000)  returns 0x00 (0000ms, 0746ms total)
T713C 001:467 JLINK_WriteReg(R4, 0x00000000)  returns 0x00 (0000ms, 0746ms total)
T713C 001:467 JLINK_WriteReg(R5, 0x00000000)  returns 0x00 (0000ms, 0746ms total)
T713C 001:467 JLINK_WriteReg(R6, 0x00000000)  returns 0x00 (0000ms, 0746ms total)
T713C 001:467 JLINK_WriteReg(R7, 0x00000000)  returns 0x00 (0000ms, 0746ms total)
T713C 001:467 JLINK_WriteReg(R8, 0x00000000)  returns 0x00 (0000ms, 0746ms total)
T713C 001:467 JLINK_WriteReg(R9, 0x1FFFE610)  returns 0x00 (0000ms, 0746ms total)
T713C 001:467 JLINK_WriteReg(R10, 0x00000000)  returns 0x00 (0000ms, 0746ms total)
T713C 001:467 JLINK_WriteReg(R11, 0x00000000)  returns 0x00 (0000ms, 0746ms total)
T713C 001:467 JLINK_WriteReg(R12, 0x00000000)  returns 0x00 (0000ms, 0746ms total)
T713C 001:467 JLINK_WriteReg(R13 (SP), 0x20006000)  returns 0x00 (0000ms, 0746ms total)
T713C 001:467 JLINK_WriteReg(R14, 0x1FFFE001)  returns 0x00 (0000ms, 0746ms total)
T713C 001:467 JLINK_WriteReg(R15 (PC), 0x1FFFE0BC)  returns 0x00 (0000ms, 0746ms total)
T713C 001:467 JLINK_WriteReg(XPSR, 0x01000000)  returns 0x00 (0000ms, 0746ms total)
T713C 001:467 JLINK_WriteReg(MSP, 0x20006000)  returns 0x00 (0000ms, 0746ms total)
T713C 001:467 JLINK_WriteReg(PSP, 0x20006000)  returns 0x00 (0000ms, 0746ms total)
T713C 001:467 JLINK_WriteReg(CFBP, 0x00000000)  returns 0x00 (0000ms, 0746ms total)
T713C 001:467 JLINK_SetBPEx(Addr = 0x1FFFE000, Type = 0xFFFFFFF2)  returns 0x0000000B (0000ms, 0746ms total)
T713C 001:467 JLINK_Go() -- CPU_WriteMem(4 bytes @ 0xE0002000) (0002ms, 0748ms total)
T713C 001:469 JLINK_IsHalted()  returns FALSE (0000ms, 0748ms total)
T713C 001:471 JLINK_IsHalted()  returns FALSE (0000ms, 0748ms total)
T713C 001:473 JLINK_IsHalted()  returns FALSE (0000ms, 0748ms total)
T713C 001:475 JLINK_IsHalted()  returns FALSE (0000ms, 0748ms total)
T713C 001:477 JLINK_IsHalted()  returns TRUE (0002ms, 0750ms total)
T713C 001:479 JLINK_ReadReg(R15 (PC))  returns 0x1FFFE000 (0000ms, 0748ms total)
T713C 001:479 JLINK_ClrBPEx(BPHandle = 0x0000000B)  returns 0x00 (0000ms, 0748ms total)
T713C 001:479 JLINK_ReadReg(R0)  returns 0x00000000 (0000ms, 0748ms total)
T713C 001:480 JLINK_WriteReg(R0, 0x00001400)  returns 0x00 (0000ms, 0748ms total)
T713C 001:480 JLINK_WriteReg(R1, 0x00000400)  returns 0x00 (0000ms, 0748ms total)
T713C 001:480 JLINK_WriteReg(R2, 0x000000FF)  returns 0x00 (0000ms, 0748ms total)
T713C 001:480 JLINK_WriteReg(R3, 0x00000000)  returns 0x00 (0000ms, 0748ms total)
T713C 001:480 JLINK_WriteReg(R4, 0x00000000)  returns 0x00 (0000ms, 0748ms total)
T713C 001:480 JLINK_WriteReg(R5, 0x00000000)  returns 0x00 (0000ms, 0748ms total)
T713C 001:480 JLINK_WriteReg(R6, 0x00000000)  returns 0x00 (0000ms, 0748ms total)
T713C 001:480 JLINK_WriteReg(R7, 0x00000000)  returns 0x00 (0000ms, 0748ms total)
T713C 001:480 JLINK_WriteReg(R8, 0x00000000)  returns 0x00 (0000ms, 0748ms total)
T713C 001:480 JLINK_WriteReg(R9, 0x1FFFE610)  returns 0x00 (0000ms, 0748ms total)
T713C 001:480 JLINK_WriteReg(R10, 0x00000000)  returns 0x00 (0000ms, 0748ms total)
T713C 001:480 JLINK_WriteReg(R11, 0x00000000)  returns 0x00 (0000ms, 0748ms total)
T713C 001:480 JLINK_WriteReg(R12, 0x00000000)  returns 0x00 (0000ms, 0748ms total)
T713C 001:480 JLINK_WriteReg(R13 (SP), 0x20006000)  returns 0x00 (0000ms, 0748ms total)
T713C 001:480 JLINK_WriteReg(R14, 0x1FFFE001)  returns 0x00 (0000ms, 0748ms total)
T713C 001:480 JLINK_WriteReg(R15 (PC), 0x1FFFE068)  returns 0x00 (0000ms, 0748ms total)
T713C 001:480 JLINK_WriteReg(XPSR, 0x01000000)  returns 0x00 (0000ms, 0748ms total)
T713C 001:480 JLINK_WriteReg(MSP, 0x20006000)  returns 0x00 (0000ms, 0748ms total)
T713C 001:480 JLINK_WriteReg(PSP, 0x20006000)  returns 0x00 (0000ms, 0748ms total)
T713C 001:480 JLINK_WriteReg(CFBP, 0x00000000)  returns 0x00 (0000ms, 0748ms total)
T713C 001:480 JLINK_SetBPEx(Addr = 0x1FFFE000, Type = 0xFFFFFFF2)  returns 0x0000000C (0000ms, 0748ms total)
T713C 001:480 JLINK_Go() -- CPU_WriteMem(4 bytes @ 0xE0002000) (0002ms, 0750ms total)
T713C 001:482 JLINK_IsHalted()  returns TRUE (0002ms, 0752ms total)
T713C 001:484 JLINK_ReadReg(R15 (PC))  returns 0x1FFFE000 (0000ms, 0750ms total)
T713C 001:484 JLINK_ClrBPEx(BPHandle = 0x0000000C)  returns 0x00 (0000ms, 0750ms total)
T713C 001:484 JLINK_ReadReg(R0)  returns 0x00000001 (0000ms, 0750ms total)
T713C 001:484 JLINK_WriteReg(R0, 0x00001400)  returns 0x00 (0000ms, 0750ms total)
T713C 001:484 JLINK_WriteReg(R1, 0x00000400)  returns 0x00 (0000ms, 0750ms total)
T713C 001:484 JLINK_WriteReg(R2, 0x000000FF)  returns 0x00 (0000ms, 0750ms total)
T713C 001:484 JLINK_WriteReg(R3, 0x00000000)  returns 0x00 (0001ms, 0751ms total)
T713C 001:485 JLINK_WriteReg(R4, 0x00000000)  returns 0x00 (0000ms, 0751ms total)
T713C 001:485 JLINK_WriteReg(R5, 0x00000000)  returns 0x00 (0000ms, 0751ms total)
T713C 001:485 JLINK_WriteReg(R6, 0x00000000)  returns 0x00 (0000ms, 0751ms total)
T713C 001:485 JLINK_WriteReg(R7, 0x00000000)  returns 0x00 (0000ms, 0751ms total)
T713C 001:485 JLINK_WriteReg(R8, 0x00000000)  returns 0x00 (0000ms, 0751ms total)
T713C 001:485 JLINK_WriteReg(R9, 0x1FFFE610)  returns 0x00 (0000ms, 0751ms total)
T713C 001:485 JLINK_WriteReg(R10, 0x00000000)  returns 0x00 (0000ms, 0751ms total)
T713C 001:485 JLINK_WriteReg(R11, 0x00000000)  returns 0x00 (0000ms, 0751ms total)
T713C 001:485 JLINK_WriteReg(R12, 0x00000000)  returns 0x00 (0000ms, 0751ms total)
T713C 001:485 JLINK_WriteReg(R13 (SP), 0x20006000)  returns 0x00 (0000ms, 0751ms total)
T713C 001:485 JLINK_WriteReg(R14, 0x1FFFE001)  returns 0x00 (0000ms, 0751ms total)
T713C 001:485 JLINK_WriteReg(R15 (PC), 0x1FFFE0BC)  returns 0x00 (0000ms, 0751ms total)
T713C 001:485 JLINK_WriteReg(XPSR, 0x01000000)  returns 0x00 (0000ms, 0751ms total)
T713C 001:485 JLINK_WriteReg(MSP, 0x20006000)  returns 0x00 (0000ms, 0751ms total)
T713C 001:485 JLINK_WriteReg(PSP, 0x20006000)  returns 0x00 (0000ms, 0751ms total)
T713C 001:485 JLINK_WriteReg(CFBP, 0x00000000)  returns 0x00 (0000ms, 0751ms total)
T713C 001:485 JLINK_SetBPEx(Addr = 0x1FFFE000, Type = 0xFFFFFFF2)  returns 0x0000000D (0000ms, 0751ms total)
T713C 001:485 JLINK_Go() -- CPU_WriteMem(4 bytes @ 0xE0002000) (0002ms, 0753ms total)
T713C 001:487 JLINK_IsHalted()  returns FALSE (0000ms, 0753ms total)
T713C 001:507 JLINK_IsHalted()  returns TRUE (0002ms, 0755ms total)
T713C 001:509 JLINK_ReadReg(R15 (PC))  returns 0x1FFFE000 (0000ms, 0753ms total)
T713C 001:509 JLINK_ClrBPEx(BPHandle = 0x0000000D)  returns 0x00 (0000ms, 0753ms total)
T713C 001:509 JLINK_ReadReg(R0)  returns 0x00000000 (0000ms, 0753ms total)
T713C 001:509 JLINK_WriteReg(R0, 0x00001800)  returns 0x00 (0000ms, 0753ms total)
T713C 001:509 JLINK_WriteReg(R1, 0x00000400)  returns 0x00 (0001ms, 0754ms total)
T713C 001:510 JLINK_WriteReg(R2, 0x000000FF)  returns 0x00 (0000ms, 0754ms total)
T713C 001:510 JLINK_WriteReg(R3, 0x00000000)  returns 0x00 (0000ms, 0754ms total)
T713C 001:510 JLINK_WriteReg(R4, 0x00000000)  returns 0x00 (0000ms, 0754ms total)
T713C 001:510 JLINK_WriteReg(R5, 0x00000000)  returns 0x00 (0000ms, 0754ms total)
T713C 001:510 JLINK_WriteReg(R6, 0x00000000)  returns 0x00 (0000ms, 0754ms total)
T713C 001:510 JLINK_WriteReg(R7, 0x00000000)  returns 0x00 (0000ms, 0754ms total)
T713C 001:510 JLINK_WriteReg(R8, 0x00000000)  returns 0x00 (0000ms, 0754ms total)
T713C 001:510 JLINK_WriteReg(R9, 0x1FFFE610)  returns 0x00 (0000ms, 0754ms total)
T713C 001:510 JLINK_WriteReg(R10, 0x00000000)  returns 0x00 (0000ms, 0754ms total)
T713C 001:510 JLINK_WriteReg(R11, 0x00000000)  returns 0x00 (0000ms, 0754ms total)
T713C 001:510 JLINK_WriteReg(R12, 0x00000000)  returns 0x00 (0000ms, 0754ms total)
T713C 001:510 JLINK_WriteReg(R13 (SP), 0x20006000)  returns 0x00 (0000ms, 0754ms total)
T713C 001:510 JLINK_WriteReg(R14, 0x1FFFE001)  returns 0x00 (0000ms, 0754ms total)
T713C 001:510 JLINK_WriteReg(R15 (PC), 0x1FFFE068)  returns 0x00 (0000ms, 0754ms total)
T713C 001:510 JLINK_WriteReg(XPSR, 0x01000000)  returns 0x00 (0000ms, 0754ms total)
T713C 001:510 JLINK_WriteReg(MSP, 0x20006000)  returns 0x00 (0000ms, 0754ms total)
T713C 001:510 JLINK_WriteReg(PSP, 0x20006000)  returns 0x00 (0000ms, 0754ms total)
T713C 001:510 JLINK_WriteReg(CFBP, 0x00000000)  returns 0x00 (0000ms, 0754ms total)
T713C 001:510 JLINK_SetBPEx(Addr = 0x1FFFE000, Type = 0xFFFFFFF2)  returns 0x0000000E (0000ms, 0754ms total)
T713C 001:510 JLINK_Go() -- CPU_WriteMem(4 bytes @ 0xE0002000) (0002ms, 0756ms total)
T713C 001:512 JLINK_IsHalted()  returns TRUE (0002ms, 0758ms total)
T713C 001:514 JLINK_ReadReg(R15 (PC))  returns 0x1FFFE000 (0000ms, 0756ms total)
T713C 001:514 JLINK_ClrBPEx(BPHandle = 0x0000000E)  returns 0x00 (0000ms, 0756ms total)
T713C 001:514 JLINK_ReadReg(R0)  returns 0x00000001 (0000ms, 0756ms total)
T713C 001:514 JLINK_WriteReg(R0, 0x00001800)  returns 0x00 (0000ms, 0756ms total)
T713C 001:514 JLINK_WriteReg(R1, 0x00000400)  returns 0x00 (0000ms, 0756ms total)
T713C 001:514 JLINK_WriteReg(R2, 0x000000FF)  returns 0x00 (0000ms, 0756ms total)
T713C 001:514 JLINK_WriteReg(R3, 0x00000000)  returns 0x00 (0000ms, 0756ms total)
T713C 001:514 JLINK_WriteReg(R4, 0x00000000)  returns 0x00 (0000ms, 0756ms total)
T713C 001:514 JLINK_WriteReg(R5, 0x00000000)  returns 0x00 (0000ms, 0756ms total)
T713C 001:514 JLINK_WriteReg(R6, 0x00000000)  returns 0x00 (0000ms, 0756ms total)
T713C 001:514 JLINK_WriteReg(R7, 0x00000000)  returns 0x00 (0000ms, 0756ms total)
T713C 001:514 JLINK_WriteReg(R8, 0x00000000)  returns 0x00 (0000ms, 0756ms total)
T713C 001:514 JLINK_WriteReg(R9, 0x1FFFE610)  returns 0x00 (0000ms, 0756ms total)
T713C 001:514 JLINK_WriteReg(R10, 0x00000000)  returns 0x00 (0000ms, 0756ms total)
T713C 001:514 JLINK_WriteReg(R11, 0x00000000)  returns 0x00 (0001ms, 0757ms total)
T713C 001:515 JLINK_WriteReg(R12, 0x00000000)  returns 0x00 (0000ms, 0757ms total)
T713C 001:515 JLINK_WriteReg(R13 (SP), 0x20006000)  returns 0x00 (0000ms, 0757ms total)
T713C 001:515 JLINK_WriteReg(R14, 0x1FFFE001)  returns 0x00 (0000ms, 0757ms total)
T713C 001:515 JLINK_WriteReg(R15 (PC), 0x1FFFE0BC)  returns 0x00 (0000ms, 0757ms total)
T713C 001:515 JLINK_WriteReg(XPSR, 0x01000000)  returns 0x00 (0000ms, 0757ms total)
T713C 001:515 JLINK_WriteReg(MSP, 0x20006000)  returns 0x00 (0000ms, 0757ms total)
T713C 001:515 JLINK_WriteReg(PSP, 0x20006000)  returns 0x00 (0000ms, 0757ms total)
T713C 001:515 JLINK_WriteReg(CFBP, 0x00000000)  returns 0x00 (0000ms, 0757ms total)
T713C 001:515 JLINK_SetBPEx(Addr = 0x1FFFE000, Type = 0xFFFFFFF2)  returns 0x0000000F (0000ms, 0757ms total)
T713C 001:515 JLINK_Go() -- CPU_WriteMem(4 bytes @ 0xE0002000) (0002ms, 0759ms total)
T713C 001:517 JLINK_IsHalted()  returns FALSE (0000ms, 0759ms total)
T713C 001:522 JLINK_IsHalted()  returns FALSE (0000ms, 0759ms total)
T713C 001:524 JLINK_IsHalted()  returns TRUE (0002ms, 0761ms total)
T713C 001:526 JLINK_ReadReg(R15 (PC))  returns 0x1FFFE000 (0000ms, 0759ms total)
T713C 001:526 JLINK_ClrBPEx(BPHandle = 0x0000000F)  returns 0x00 (0000ms, 0759ms total)
T713C 001:526 JLINK_ReadReg(R0)  returns 0x00000000 (0000ms, 0759ms total)
T713C 001:526 JLINK_WriteReg(R0, 0x00001C00)  returns 0x00 (0000ms, 0759ms total)
T713C 001:526 JLINK_WriteReg(R1, 0x00000400)  returns 0x00 (0000ms, 0759ms total)
T713C 001:526 JLINK_WriteReg(R2, 0x000000FF)  returns 0x00 (0000ms, 0759ms total)
T713C 001:526 JLINK_WriteReg(R3, 0x00000000)  returns 0x00 (0000ms, 0759ms total)
T713C 001:526 JLINK_WriteReg(R4, 0x00000000)  returns 0x00 (0000ms, 0759ms total)
T713C 001:527 JLINK_WriteReg(R5, 0x00000000)  returns 0x00 (0000ms, 0760ms total)
T713C 001:527 JLINK_WriteReg(R6, 0x00000000)  returns 0x00 (0000ms, 0760ms total)
T713C 001:527 JLINK_WriteReg(R7, 0x00000000)  returns 0x00 (0000ms, 0760ms total)
T713C 001:527 JLINK_WriteReg(R8, 0x00000000)  returns 0x00 (0000ms, 0760ms total)
T713C 001:527 JLINK_WriteReg(R9, 0x1FFFE610)  returns 0x00 (0000ms, 0760ms total)
T713C 001:527 JLINK_WriteReg(R10, 0x00000000)  returns 0x00 (0000ms, 0760ms total)
T713C 001:527 JLINK_WriteReg(R11, 0x00000000)  returns 0x00 (0000ms, 0760ms total)
T713C 001:527 JLINK_WriteReg(R12, 0x00000000)  returns 0x00 (0000ms, 0760ms total)
T713C 001:527 JLINK_WriteReg(R13 (SP), 0x20006000)  returns 0x00 (0000ms, 0760ms total)
T713C 001:527 JLINK_WriteReg(R14, 0x1FFFE001)  returns 0x00 (0000ms, 0760ms total)
T713C 001:527 JLINK_WriteReg(R15 (PC), 0x1FFFE068)  returns 0x00 (0000ms, 0760ms total)
T713C 001:527 JLINK_WriteReg(XPSR, 0x01000000)  returns 0x00 (0000ms, 0760ms total)
T713C 001:527 JLINK_WriteReg(MSP, 0x20006000)  returns 0x00 (0000ms, 0760ms total)
T713C 001:527 JLINK_WriteReg(PSP, 0x20006000)  returns 0x00 (0000ms, 0760ms total)
T713C 001:527 JLINK_WriteReg(CFBP, 0x00000000)  returns 0x00 (0000ms, 0760ms total)
T713C 001:527 JLINK_SetBPEx(Addr = 0x1FFFE000, Type = 0xFFFFFFF2)  returns 0x00000010 (0000ms, 0760ms total)
T713C 001:527 JLINK_Go() -- CPU_WriteMem(4 bytes @ 0xE0002000) (0002ms, 0762ms total)
T713C 001:529 JLINK_IsHalted()  returns TRUE (0002ms, 0764ms total)
T713C 001:531 JLINK_ReadReg(R15 (PC))  returns 0x1FFFE000 (0000ms, 0762ms total)
T713C 001:531 JLINK_ClrBPEx(BPHandle = 0x00000010)  returns 0x00 (0000ms, 0762ms total)
T713C 001:531 JLINK_ReadReg(R0)  returns 0x00000001 (0000ms, 0762ms total)
T713C 001:531 JLINK_WriteReg(R0, 0x00001C00)  returns 0x00 (0000ms, 0762ms total)
T713C 001:531 JLINK_WriteReg(R1, 0x00000400)  returns 0x00 (0000ms, 0762ms total)
T713C 001:531 JLINK_WriteReg(R2, 0x000000FF)  returns 0x00 (0000ms, 0762ms total)
T713C 001:531 JLINK_WriteReg(R3, 0x00000000)  returns 0x00 (0000ms, 0762ms total)
T713C 001:531 JLINK_WriteReg(R4, 0x00000000)  returns 0x00 (0000ms, 0762ms total)
T713C 001:531 JLINK_WriteReg(R5, 0x00000000)  returns 0x00 (0000ms, 0762ms total)
T713C 001:531 JLINK_WriteReg(R6, 0x00000000)  returns 0x00 (0000ms, 0762ms total)
T713C 001:531 JLINK_WriteReg(R7, 0x00000000)  returns 0x00 (0000ms, 0762ms total)
T713C 001:531 JLINK_WriteReg(R8, 0x00000000)  returns 0x00 (0000ms, 0762ms total)
T713C 001:531 JLINK_WriteReg(R9, 0x1FFFE610)  returns 0x00 (0000ms, 0762ms total)
T713C 001:531 JLINK_WriteReg(R10, 0x00000000)  returns 0x00 (0000ms, 0762ms total)
T713C 001:531 JLINK_WriteReg(R11, 0x00000000)  returns 0x00 (0000ms, 0762ms total)
T713C 001:531 JLINK_WriteReg(R12, 0x00000000)  returns 0x00 (0000ms, 0762ms total)
T713C 001:531 JLINK_WriteReg(R13 (SP), 0x20006000)  returns 0x00 (0000ms, 0762ms total)
T713C 001:531 JLINK_WriteReg(R14, 0x1FFFE001)  returns 0x00 (0000ms, 0762ms total)
T713C 001:531 JLINK_WriteReg(R15 (PC), 0x1FFFE0BC)  returns 0x00 (0000ms, 0762ms total)
T713C 001:531 JLINK_WriteReg(XPSR, 0x01000000)  returns 0x00 (0000ms, 0762ms total)
T713C 001:531 JLINK_WriteReg(MSP, 0x20006000)  returns 0x00 (0000ms, 0762ms total)
T713C 001:531 JLINK_WriteReg(PSP, 0x20006000)  returns 0x00 (0000ms, 0762ms total)
T713C 001:531 JLINK_WriteReg(CFBP, 0x00000000)  returns 0x00 (0000ms, 0762ms total)
T713C 001:531 JLINK_SetBPEx(Addr = 0x1FFFE000, Type = 0xFFFFFFF2)  returns 0x00000011 (0000ms, 0762ms total)
T713C 001:531 JLINK_Go() -- CPU_WriteMem(4 bytes @ 0xE0002000) (0002ms, 0764ms total)
T713C 001:533 JLINK_IsHalted()  returns FALSE (0000ms, 0764ms total)
T713C 001:552 JLINK_IsHalted()  returns TRUE (0002ms, 0766ms total)
T713C 001:554 JLINK_ReadReg(R15 (PC))  returns 0x1FFFE000 (0000ms, 0764ms total)
T713C 001:554 JLINK_ClrBPEx(BPHandle = 0x00000011)  returns 0x00 (0000ms, 0764ms total)
T713C 001:554 JLINK_ReadReg(R0)  returns 0x00000000 (0000ms, 0764ms total)
T713C 001:554 JLINK_WriteReg(R0, 0x00002000)  returns 0x00 (0000ms, 0764ms total)
T713C 001:555 JLINK_WriteReg(R1, 0x00000400)  returns 0x00 (0000ms, 0764ms total)
T713C 001:555 JLINK_WriteReg(R2, 0x000000FF)  returns 0x00 (0000ms, 0764ms total)
T713C 001:555 JLINK_WriteReg(R3, 0x00000000)  returns 0x00 (0000ms, 0764ms total)
T713C 001:555 JLINK_WriteReg(R4, 0x00000000)  returns 0x00 (0000ms, 0764ms total)
T713C 001:555 JLINK_WriteReg(R5, 0x00000000)  returns 0x00 (0000ms, 0764ms total)
T713C 001:555 JLINK_WriteReg(R6, 0x00000000)  returns 0x00 (0000ms, 0764ms total)
T713C 001:555 JLINK_WriteReg(R7, 0x00000000)  returns 0x00 (0000ms, 0764ms total)
T713C 001:555 JLINK_WriteReg(R8, 0x00000000)  returns 0x00 (0000ms, 0764ms total)
T713C 001:555 JLINK_WriteReg(R9, 0x1FFFE610)  returns 0x00 (0000ms, 0764ms total)
T713C 001:555 JLINK_WriteReg(R10, 0x00000000)  returns 0x00 (0000ms, 0764ms total)
T713C 001:555 JLINK_WriteReg(R11, 0x00000000)  returns 0x00 (0000ms, 0764ms total)
T713C 001:555 JLINK_WriteReg(R12, 0x00000000)  returns 0x00 (0000ms, 0764ms total)
T713C 001:555 JLINK_WriteReg(R13 (SP), 0x20006000)  returns 0x00 (0000ms, 0764ms total)
T713C 001:555 JLINK_WriteReg(R14, 0x1FFFE001)  returns 0x00 (0000ms, 0764ms total)
T713C 001:555 JLINK_WriteReg(R15 (PC), 0x1FFFE068)  returns 0x00 (0000ms, 0764ms total)
T713C 001:555 JLINK_WriteReg(XPSR, 0x01000000)  returns 0x00 (0000ms, 0764ms total)
T713C 001:555 JLINK_WriteReg(MSP, 0x20006000)  returns 0x00 (0000ms, 0764ms total)
T713C 001:555 JLINK_WriteReg(PSP, 0x20006000)  returns 0x00 (0000ms, 0764ms total)
T713C 001:555 JLINK_WriteReg(CFBP, 0x00000000)  returns 0x00 (0000ms, 0764ms total)
T713C 001:555 JLINK_SetBPEx(Addr = 0x1FFFE000, Type = 0xFFFFFFF2)  returns 0x00000012 (0000ms, 0764ms total)
T713C 001:555 JLINK_Go() -- CPU_WriteMem(4 bytes @ 0xE0002000) (0002ms, 0766ms total)
T713C 001:557 JLINK_IsHalted()  returns TRUE (0002ms, 0768ms total)
T713C 001:559 JLINK_ReadReg(R15 (PC))  returns 0x1FFFE000 (0000ms, 0766ms total)
T713C 001:559 JLINK_ClrBPEx(BPHandle = 0x00000012)  returns 0x00 (0000ms, 0766ms total)
T713C 001:559 JLINK_ReadReg(R0)  returns 0x00000001 (0000ms, 0766ms total)
T713C 001:559 JLINK_WriteReg(R0, 0x00002000)  returns 0x00 (0000ms, 0766ms total)
T713C 001:559 JLINK_WriteReg(R1, 0x00000400)  returns 0x00 (0000ms, 0766ms total)
T713C 001:559 JLINK_WriteReg(R2, 0x000000FF)  returns 0x00 (0000ms, 0766ms total)
T713C 001:559 JLINK_WriteReg(R3, 0x00000000)  returns 0x00 (0000ms, 0766ms total)
T713C 001:559 JLINK_WriteReg(R4, 0x00000000)  returns 0x00 (0000ms, 0766ms total)
T713C 001:559 JLINK_WriteReg(R5, 0x00000000)  returns 0x00 (0000ms, 0766ms total)
T713C 001:559 JLINK_WriteReg(R6, 0x00000000)  returns 0x00 (0000ms, 0766ms total)
T713C 001:559 JLINK_WriteReg(R7, 0x00000000)  returns 0x00 (0000ms, 0766ms total)
T713C 001:559 JLINK_WriteReg(R8, 0x00000000)  returns 0x00 (0000ms, 0766ms total)
T713C 001:559 JLINK_WriteReg(R9, 0x1FFFE610)  returns 0x00 (0000ms, 0766ms total)
T713C 001:559 JLINK_WriteReg(R10, 0x00000000)  returns 0x00 (0000ms, 0766ms total)
T713C 001:559 JLINK_WriteReg(R11, 0x00000000)  returns 0x00 (0000ms, 0766ms total)
T713C 001:559 JLINK_WriteReg(R12, 0x00000000)  returns 0x00 (0000ms, 0766ms total)
T713C 001:559 JLINK_WriteReg(R13 (SP), 0x20006000)  returns 0x00 (0000ms, 0766ms total)
T713C 001:559 JLINK_WriteReg(R14, 0x1FFFE001)  returns 0x00 (0000ms, 0766ms total)
T713C 001:559 JLINK_WriteReg(R15 (PC), 0x1FFFE0BC)  returns 0x00 (0000ms, 0766ms total)
T713C 001:559 JLINK_WriteReg(XPSR, 0x01000000)  returns 0x00 (0000ms, 0766ms total)
T713C 001:559 JLINK_WriteReg(MSP, 0x20006000)  returns 0x00 (0000ms, 0766ms total)
T713C 001:559 JLINK_WriteReg(PSP, 0x20006000)  returns 0x00 (0000ms, 0766ms total)
T713C 001:559 JLINK_WriteReg(CFBP, 0x00000000)  returns 0x00 (0000ms, 0766ms total)
T713C 001:559 JLINK_SetBPEx(Addr = 0x1FFFE000, Type = 0xFFFFFFF2)  returns 0x00000013 (0000ms, 0766ms total)
T713C 001:559 JLINK_Go() -- CPU_WriteMem(4 bytes @ 0xE0002000) (0002ms, 0768ms total)
T713C 001:561 JLINK_IsHalted()  returns FALSE (0000ms, 0768ms total)
T713C 001:566 JLINK_IsHalted()  returns FALSE (0000ms, 0768ms total)
T713C 001:568 JLINK_IsHalted()  returns FALSE (0000ms, 0768ms total)
T713C 001:570 JLINK_IsHalted()  returns TRUE (0002ms, 0770ms total)
T713C 001:572 JLINK_ReadReg(R15 (PC))  returns 0x1FFFE000 (0000ms, 0768ms total)
T713C 001:572 JLINK_ClrBPEx(BPHandle = 0x00000013)  returns 0x00 (0000ms, 0768ms total)
T713C 001:572 JLINK_ReadReg(R0)  returns 0x00000000 (0000ms, 0768ms total)
T713C 001:572 JLINK_WriteReg(R0, 0x00002400)  returns 0x00 (0000ms, 0768ms total)
T713C 001:572 JLINK_WriteReg(R1, 0x00000400)  returns 0x00 (0000ms, 0768ms total)
T713C 001:572 JLINK_WriteReg(R2, 0x000000FF)  returns 0x00 (0000ms, 0768ms total)
T713C 001:572 JLINK_WriteReg(R3, 0x00000000)  returns 0x00 (0000ms, 0768ms total)
T713C 001:572 JLINK_WriteReg(R4, 0x00000000)  returns 0x00 (0000ms, 0768ms total)
T713C 001:572 JLINK_WriteReg(R5, 0x00000000)  returns 0x00 (0000ms, 0768ms total)
T713C 001:572 JLINK_WriteReg(R6, 0x00000000)  returns 0x00 (0000ms, 0768ms total)
T713C 001:572 JLINK_WriteReg(R7, 0x00000000)  returns 0x00 (0000ms, 0768ms total)
T713C 001:572 JLINK_WriteReg(R8, 0x00000000)  returns 0x00 (0000ms, 0768ms total)
T713C 001:572 JLINK_WriteReg(R9, 0x1FFFE610)  returns 0x00 (0000ms, 0768ms total)
T713C 001:572 JLINK_WriteReg(R10, 0x00000000)  returns 0x00 (0000ms, 0768ms total)
T713C 001:572 JLINK_WriteReg(R11, 0x00000000)  returns 0x00 (0000ms, 0768ms total)
T713C 001:572 JLINK_WriteReg(R12, 0x00000000)  returns 0x00 (0001ms, 0769ms total)
